Time [s], Analyzer Name, Decoded Protocol Result
0.002964000000000,pin4,'0' (0x00)
0.007478000000000,pin4,'0' (0x00)
0.011991000000000,pin4,'0' (0x00)
0.016504000000000,pin4,'0' (0x00)
0.021018000000000,pin4,'0' (0x00)
0.025531000000000,pin4,'0' (0x00)
0.030045000000000,pin4,'0' (0x00)
0.034558000000000,pin4,'0' (0x00)
0.039071000000000,pin4,'0' (0x00)
0.043585000000000,pin4,'0' (0x00)
0.048098000000000,pin4,'0' (0x00)
0.052611000000000,pin4,^ (0x5E)
1.243448000000000,pin5,'252' (0xFC)
1.248032000000000,pin5,B (0x42)
1.252615000000000,pin5,'1' (0x01)
1.257199000000000,pin5,0 (0x30)
1.261783000000000,pin5,'16' (0x10)
1.266366000000000,pin5,'2' (0x02)
1.270950000000000,pin5,'0' (0x00)
1.275533000000000,pin5,'0' (0x00)
1.280117000000000,pin5,'0' (0x00)
1.284701000000000,pin5,'0' (0x00)
1.289284000000000,pin5,'0' (0x00)
1.293868000000000,pin5,'0' (0x00)
1.298452000000000,pin5,'0' (0x00)
1.303035000000000,pin5,'0' (0x00)
1.307619000000000,pin5,'0' (0x00)
1.312202000000000,pin5,'0' (0x00)
1.316786000000000,pin5,'0' (0x00)
1.321370000000000,pin5,'0' (0x00)
1.325953000000000,pin5,'0' (0x00)
1.330537000000000,pin5,'0' (0x00)
1.335120000000000,pin5,'0' (0x00)
1.339704000000000,pin5,{ (0x7B)
1.357491000000000,pin4,'252' (0xFC)
1.362004000000000,pin4,b (0x62)
1.366518000000000,pin4,'1' (0x01)
1.371031000000000,pin4,0 (0x30)
1.375544000000000,pin4,'16' (0x10)
1.380058000000000,pin4,'2' (0x02)
1.384571000000000,pin4,'0' (0x00)
1.389084000000000,pin4,'0' (0x00)
1.393598000000000,pin4,'1' (0x01)
1.398111000000000,pin4,'1' (0x01)
1.402625000000000,pin4,'29' (0x1D)
1.407138000000000,pin4,'0' (0x00)
1.411651000000000,pin4,'5' (0x05)
1.416165000000000,pin4,'0' (0x00)
1.420678000000000,pin4,'0' (0x00)
1.425192000000000,pin4,'0' (0x00)
1.429705000000000,pin4,'165' (0xA5)
1.434218000000000,pin4,'0' (0x00)
1.438732000000000,pin4,'0' (0x00)
1.443245000000000,pin4,'0' (0x00)
1.447758000000000,pin4,'0' (0x00)
1.452272000000000,pin4,'146' (0x92)
1.481301000000000,pin5,'252' (0xFC)
1.485885000000000,pin5,B (0x42)
1.490469000000000,pin5,'1' (0x01)
1.495052000000000,pin5,0 (0x30)
1.499636000000000,pin5,'16' (0x10)
1.504219000000000,pin5,'3' (0x03)
1.508803000000000,pin5,'0' (0x00)
1.513387000000000,pin5,'0' (0x00)
1.517970000000000,pin5,'0' (0x00)
1.522554000000000,pin5,'0' (0x00)
1.527137000000000,pin5,'0' (0x00)
1.531721000000000,pin5,'0' (0x00)
1.536305000000000,pin5,'0' (0x00)
1.540888000000000,pin5,'0' (0x00)
1.545472000000000,pin5,'0' (0x00)
1.550056000000000,pin5,'0' (0x00)
1.554639000000000,pin5,'0' (0x00)
1.559223000000000,pin5,'0' (0x00)
1.563806000000000,pin5,'0' (0x00)
1.568390000000000,pin5,'0' (0x00)
1.572974000000000,pin5,'0' (0x00)
1.577557000000000,pin5,z (0x7A)
1.598675000000000,pin4,'252' (0xFC)
1.603188000000000,pin4,b (0x62)
1.607701000000000,pin4,'1' (0x01)
1.612215000000000,pin4,0 (0x30)
1.616728000000000,pin4,'16' (0x10)
1.621241000000000,pin4,'3' (0x03)
1.625755000000000,pin4,'0' (0x00)
1.630268000000000,pin4,'0' (0x00)
1.634782000000000,pin4,'4' (0x04)
1.639295000000000,pin4,'0' (0x00)
1.643808000000000,pin4,'150' (0x96)
1.648322000000000,pin4,'157' (0x9D)
1.652835000000000,pin4,'0' (0x00)
1.657348000000000,pin4,'0' (0x00)
1.661862000000000,pin4,'0' (0x00)
1.666375000000000,pin4,'0' (0x00)
1.720378000000000,pin5,'252' (0xFC)
1.724962000000000,pin5,A (0x41)
1.729546000000000,pin5,'1' (0x01)
1.734129000000000,pin5,0 (0x30)
1.738713000000000,pin5,'16' (0x10)
1.743297000000000,pin5,'1' (0x01)
1.720378000000000,pin5,'252' (0xFC)
1.724962000000000,pin5,A (0x41)
1.729546000000000,pin5,'1' (0x01)
1.734129000000000,pin5,0 (0x30)
1.738713000000000,pin5,'16' (0x10)
1.743297000000000,pin5,'1' (0x01)
1.747880000000000,pin5,'15' (0x0F)
1.752464000000000,pin5,'0' (0x00)
1.757047000000000,pin5,'1' (0x01)
1.761631000000000,pin5,'1' (0x01)
1.766215000000000,pin5,'0' (0x00)
1.770798000000000,pin5,'0' (0x00)
1.775382000000000,pin5,'0' (0x00)
1.779965000000000,pin5,'0' (0x00)
1.784549000000000,pin5,'0' (0x00)
1.789133000000000,pin5,'0' (0x00)
1.793716000000000,pin5,'0' (0x00)
1.798300000000000,pin5,'0' (0x00)
1.802884000000000,pin5,'0' (0x00)
1.807467000000000,pin5,'165' (0xA5)
1.812051000000000,pin5,'0' (0x00)
1.816634000000000,pin5,'199' (0xC7)
1.838935000000000,pin4,'252' (0xFC)
1.843448000000000,pin4,a (0x61)
1.847962000000000,pin4,'1' (0x01)
1.852475000000000,pin4,0 (0x30)
1.856989000000000,pin4,'16' (0x10)
1.861502000000000,pin4,'0' (0x00)
1.866015000000000,pin4,'0' (0x00)
1.870529000000000,pin4,'0' (0x00)
1.875042000000000,pin4,'0' (0x00)
1.879555000000000,pin4,'0' (0x00)
1.884069000000000,pin4,'0' (0x00)
1.888582000000000,pin4,'0' (0x00)
1.893096000000000,pin4,'0' (0x00)
1.897609000000000,pin4,'0' (0x00)
1.902122000000000,pin4,'0' (0x00)
1.906636000000000,pin4,'0' (0x00)
1.911149000000000,pin4,'0' (0x00)
1.915662000000000,pin4,'0' (0x00)
1.920176000000000,pin4,'0' (0x00)
1.924689000000000,pin4,'0' (0x00)
1.929203000000000,pin4,'0' (0x00)
1.933716000000000,pin4,^ (0x5E)
3.121298000000000,pin5,'252' (0xFC)
3.125881000000000,pin5,B (0x42)
3.130465000000000,pin5,'1' (0x01)
3.135049000000000,pin5,0 (0x30)
3.139632000000000,pin5,'16' (0x10)
3.144216000000000,pin5,'2' (0x02)
3.148799000000000,pin5,'0' (0x00)
3.153383000000000,pin5,'0' (0x00)
3.157967000000000,pin5,'0' (0x00)
3.162550000000000,pin5,'0' (0x00)
3.167134000000000,pin5,'0' (0x00)
3.171717000000000,pin5,'0' (0x00)
3.176301000000000,pin5,'0' (0x00)
3.180885000000000,pin5,'0' (0x00)
3.185468000000000,pin5,'0' (0x00)
3.190052000000000,pin5,'0' (0x00)
3.194636000000000,pin5,'0' (0x00)
3.199219000000000,pin5,'0' (0x00)
3.203803000000000,pin5,'0' (0x00)
3.208386000000000,pin5,'0' (0x00)
3.212970000000000,pin5,'0' (0x00)
3.217554000000000,pin5,{ (0x7B)
3.238006000000000,pin4,'252' (0xFC)
3.242519000000000,pin4,b (0x62)
3.247033000000000,pin4,'1' (0x01)
3.251546000000000,pin4,0 (0x30)
3.256059000000000,pin4,'16' (0x10)
3.260573000000000,pin4,'2' (0x02)
3.265086000000000,pin4,'0' (0x00)
3.269599000000000,pin4,'0' (0x00)
3.274113000000000,pin4,'1' (0x01)
3.278626000000000,pin4,'1' (0x01)
3.283140000000000,pin4,'29' (0x1D)
3.287653000000000,pin4,'0' (0x00)
3.292166000000000,pin4,'5' (0x05)
3.296680000000000,pin4,'0' (0x00)
3.301193000000000,pin4,'0' (0x00)
3.305706000000000,pin4,'0' (0x00)
3.310220000000000,pin4,'165' (0xA5)
3.314733000000000,pin4,'0' (0x00)
3.319247000000000,pin4,'0' (0x00)
3.323760000000000,pin4,'0' (0x00)
3.328273000000000,pin4,'0' (0x00)
3.332787000000000,pin4,'146' (0x92)
3.358995000000000,pin5,'252' (0xFC)
3.363578000000000,pin5,B (0x42)
3.368162000000000,pin5,'1' (0x01)
3.372745000000000,pin5,0 (0x30)
3.377329000000000,pin5,'16' (0x10)
3.381913000000000,pin5,'3' (0x03)
3.386496000000000,pin5,'0' (0x00)
3.391080000000000,pin5,'0' (0x00)
3.395664000000000,pin5,'0' (0x00)
3.400247000000000,pin5,'0' (0x00)
3.404831000000000,pin5,'0' (0x00)
3.409414000000000,pin5,'0' (0x00)
3.413998000000000,pin5,'0' (0x00)
3.418582000000000,pin5,'0' (0x00)
3.423165000000000,pin5,'0' (0x00)
3.427749000000000,pin5,'0' (0x00)
3.432332000000000,pin5,'0' (0x00)
3.436916000000000,pin5,'0' (0x00)
3.441500000000000,pin5,'0' (0x00)
3.446083000000000,pin5,'0' (0x00)
3.450667000000000,pin5,'0' (0x00)
3.455251000000000,pin5,z (0x7A)
3.478831000000000,pin4,'252' (0xFC)
3.483344000000000,pin4,b (0x62)
3.487857000000000,pin4,'1' (0x01)
3.492371000000000,pin4,0 (0x30)
3.496884000000000,pin4,'16' (0x10)
3.501397000000000,pin4,'3' (0x03)
3.505911000000000,pin4,'0' (0x00)
3.510424000000000,pin4,'0' (0x00)
3.514938000000000,pin4,'4' (0x04)
3.519451000000000,pin4,'0' (0x00)
3.523964000000000,pin4,'150' (0x96)
3.528478000000000,pin4,'157' (0x9D)
3.532991000000000,pin4,'0' (0x00)
3.537504000000000,pin4,'0' (0x00)
3.542018000000000,pin4,'0' (0x00)
3.546531000000000,pin4,'0' (0x00)
3.551045000000000,pin4,'0' (0x00)
3.555558000000000,pin4,'0' (0x00)
3.560071000000000,pin4,'0' (0x00)
3.564585000000000,pin4,'0' (0x00)
3.569098000000000,pin4,'0' (0x00)
3.573612000000000,pin4,# (0x23)
3.600937000000000,pin5,'252' (0xFC)
3.605520000000000,pin5,A (0x41)
3.610104000000000,pin5,'1' (0x01)
3.614687000000000,pin5,0 (0x30)
3.619271000000000,pin5,'16' (0x10)
3.623855000000000,pin5,'1' (0x01)
3.628438000000000,pin5,'15' (0x0F)
3.633022000000000,pin5,'0' (0x00)
3.637605000000000,pin5,'1' (0x01)
3.642189000000000,pin5,'1' (0x01)
3.646773000000000,pin5,'0' (0x00)
3.651356000000000,pin5,'0' (0x00)
3.655940000000000,pin5,'0' (0x00)
3.660524000000000,pin5,'0' (0x00)
3.665107000000000,pin5,'0' (0x00)
3.669691000000000,pin5,'0' (0x00)
3.674274000000000,pin5,'0' (0x00)
3.678858000000000,pin5,'0' (0x00)
3.683442000000000,pin5,'0' (0x00)
3.688025000000000,pin5,'165' (0xA5)
3.692609000000000,pin5,'0' (0x00)
3.697192000000000,pin5,'199' (0xC7)
3.719527000000000,pin4,'252' (0xFC)
3.724040000000000,pin4,a (0x61)
3.728554000000000,pin4,'1' (0x01)
3.733067000000000,pin4,0 (0x30)
3.737581000000000,pin4,'16' (0x10)
3.742094000000000,pin4,'0' (0x00)
3.746607000000000,pin4,'0' (0x00)
3.751121000000000,pin4,'0' (0x00)
3.755634000000000,pin4,'0' (0x00)
3.760147000000000,pin4,'0' (0x00)
3.764661000000000,pin4,'0' (0x00)
3.769174000000000,pin4,'0' (0x00)
3.773688000000000,pin4,'0' (0x00)
3.778201000000000,pin4,'0' (0x00)
3.782714000000000,pin4,'0' (0x00)
3.787228000000000,pin4,'0' (0x00)
3.791741000000000,pin4,'0' (0x00)
3.796254000000000,pin4,'0' (0x00)
3.800768000000000,pin4,'0' (0x00)
3.805281000000000,pin4,'0' (0x00)
3.809795000000000,pin4,'0' (0x00)
3.814308000000000,pin4,^ (0x5E)
5.001986000000000,pin5,'252' (0xFC)
5.006570000000000,pin5,B (0x42)
5.011153000000000,pin5,'1' (0x01)
5.015737000000000,pin5,0 (0x30)
5.020320000000000,pin5,'16' (0x10)
5.024904000000000,pin5,'2' (0x02)
5.029488000000000,pin5,'0' (0x00)
5.034071000000000,pin5,'0' (0x00)
5.038655000000000,pin5,'0' (0x00)
5.043239000000000,pin5,'0' (0x00)
5.047822000000000,pin5,'0' (0x00)
5.052406000000000,pin5,'0' (0x00)
5.056989000000000,pin5,'0' (0x00)
5.061573000000000,pin5,'0' (0x00)
5.066157000000000,pin5,'0' (0x00)
5.070740000000000,pin5,'0' (0x00)
5.075324000000000,pin5,'0' (0x00)
5.079907000000000,pin5,'0' (0x00)
5.084491000000000,pin5,'0' (0x00)
5.089075000000000,pin5,'0' (0x00)
5.093658000000000,pin5,'0' (0x00)
5.098242000000000,pin5,{ (0x7B)
5.119188000000000,pin4,'252' (0xFC)
5.123701000000000,pin4,b (0x62)
5.128215000000000,pin4,'1' (0x01)
5.132728000000000,pin4,0 (0x30)
5.137241000000000,pin4,'16' (0x10)
5.141755000000000,pin4,'2' (0x02)
5.146268000000000,pin4,'0' (0x00)
5.150781000000000,pin4,'0' (0x00)
5.155295000000000,pin4,'1' (0x01)
5.159808000000000,pin4,'1' (0x01)
5.164322000000000,pin4,'29' (0x1D)
5.168835000000000,pin4,'0' (0x00)
5.173348000000000,pin4,'5' (0x05)
5.177862000000000,pin4,'0' (0x00)
5.182375000000000,pin4,'0' (0x00)
5.186888000000000,pin4,'0' (0x00)
5.191402000000000,pin4,'165' (0xA5)
5.195915000000000,pin4,'0' (0x00)
5.200429000000000,pin4,'0' (0x00)
5.204942000000000,pin4,'0' (0x00)
5.209455000000000,pin4,'0' (0x00)
5.213969000000000,pin4,'146' (0x92)
5.239657000000000,pin5,'252' (0xFC)
5.244240000000000,pin5,B (0x42)
5.248824000000000,pin5,'1' (0x01)
5.253408000000000,pin5,0 (0x30)
5.257991000000000,pin5,'16' (0x10)
5.262575000000000,pin5,'3' (0x03)
5.267159000000000,pin5,'0' (0x00)
5.271742000000000,pin5,'0' (0x00)
5.276326000000000,pin5,'0' (0x00)
5.280909000000000,pin5,'0' (0x00)
5.285493000000000,pin5,'0' (0x00)
5.290077000000000,pin5,'0' (0x00)
5.294660000000000,pin5,'0' (0x00)
5.299244000000000,pin5,'0' (0x00)
5.303827000000000,pin5,'0' (0x00)
5.308411000000000,pin5,'0' (0x00)
5.312995000000000,pin5,'0' (0x00)
5.317578000000000,pin5,'0' (0x00)
5.322162000000000,pin5,'0' (0x00)
5.326746000000000,pin5,'0' (0x00)
5.331329000000000,pin5,'0' (0x00)
5.335913000000000,pin5,z (0x7A)
5.359859000000000,pin4,'252' (0xFC)
5.364372000000000,pin4,b (0x62)
5.368885000000000,pin4,'1' (0x01)
5.373399000000000,pin4,0 (0x30)
5.377912000000000,pin4,'16' (0x10)
5.382426000000000,pin4,'3' (0x03)
5.386939000000000,pin4,'0' (0x00)
5.391452000000000,pin4,'0' (0x00)
5.395966000000000,pin4,'4' (0x04)
5.400479000000000,pin4,'0' (0x00)
5.404992000000000,pin4,'150' (0x96)
5.409506000000000,pin4,'157' (0x9D)
5.414019000000000,pin4,'0' (0x00)
5.418533000000000,pin4,'0' (0x00)
5.423046000000000,pin4,'0' (0x00)
5.427559000000000,pin4,'0' (0x00)
5.432073000000000,pin4,'0' (0x00)
5.436586000000000,pin4,'0' (0x00)
5.441100000000000,pin4,'0' (0x00)
5.445613000000000,pin4,'0' (0x00)
5.450126000000000,pin4,'0' (0x00)
5.454640000000000,pin4,# (0x23)
5.481573000000000,pin5,'252' (0xFC)
5.486156000000000,pin5,A (0x41)
5.490740000000000,pin5,'1' (0x01)
5.495324000000000,pin5,0 (0x30)
5.499907000000000,pin5,'16' (0x10)
5.504491000000000,pin5,'1' (0x01)
5.509074000000000,pin5,'15' (0x0F)
5.513658000000000,pin5,'0' (0x00)
5.518242000000000,pin5,'1' (0x01)
5.522825000000000,pin5,'1' (0x01)
5.527409000000000,pin5,'0' (0x00)
5.531992000000000,pin5,'0' (0x00)
5.536576000000000,pin5,'0' (0x00)
5.541160000000000,pin5,'0' (0x00)
5.545743000000000,pin5,'0' (0x00)
5.550327000000000,pin5,'0' (0x00)
5.554911000000000,pin5,'0' (0x00)
5.559494000000000,pin5,'0' (0x00)
5.564078000000000,pin5,'0' (0x00)
5.568661000000000,pin5,'165' (0xA5)
5.573245000000000,pin5,'0' (0x00)
5.577829000000000,pin5,'199' (0xC7)
5.600453000000000,pin4,'252' (0xFC)
5.604966000000000,pin4,a (0x61)
5.609479000000000,pin4,'1' (0x01)
5.613993000000000,pin4,0 (0x30)
5.618506000000000,pin4,'16' (0x10)
5.623020000000000,pin4,'0' (0x00)
5.627533000000000,pin4,'0' (0x00)
5.632046000000000,pin4,'0' (0x00)
5.636560000000000,pin4,'0' (0x00)
5.641073000000000,pin4,'0' (0x00)
5.645586000000000,pin4,'0' (0x00)
5.650100000000000,pin4,'0' (0x00)
5.654613000000000,pin4,'0' (0x00)
5.659127000000000,pin4,'0' (0x00)
5.663640000000000,pin4,'0' (0x00)
5.668153000000000,pin4,'0' (0x00)
5.672667000000000,pin4,'0' (0x00)
5.677180000000000,pin4,'0' (0x00)
5.681693000000000,pin4,'0' (0x00)
5.686207000000000,pin4,'0' (0x00)
5.690720000000000,pin4,'0' (0x00)
5.695234000000000,pin4,^ (0x5E)
6.882700000000000,pin5,'252' (0xFC)
6.887284000000000,pin5,B (0x42)
6.891868000000000,pin5,'1' (0x01)
6.896451000000000,pin5,0 (0x30)
6.901035000000000,pin5,'16' (0x10)
6.905618000000000,pin5,'2' (0x02)
6.910202000000000,pin5,'0' (0x00)
6.914786000000000,pin5,'0' (0x00)
6.919369000000000,pin5,'0' (0x00)
6.923953000000000,pin5,'0' (0x00)
6.928536000000000,pin5,'0' (0x00)
6.933120000000000,pin5,'0' (0x00)
6.937704000000000,pin5,'0' (0x00)
6.942287000000000,pin5,'0' (0x00)
6.946871000000000,pin5,'0' (0x00)
6.951455000000000,pin5,'0' (0x00)
6.956038000000000,pin5,'0' (0x00)
6.960622000000000,pin5,'0' (0x00)
6.965205000000000,pin5,'0' (0x00)
6.969789000000000,pin5,'0' (0x00)
6.974373000000000,pin5,'0' (0x00)
6.978956000000000,pin5,{ (0x7B)
6.999806000000000,pin4,'252' (0xFC)
7.004319000000000,pin4,b (0x62)
7.008833000000000,pin4,'1' (0x01)
7.013346000000000,pin4,0 (0x30)
7.017859000000000,pin4,'16' (0x10)
7.022373000000000,pin4,'2' (0x02)
7.026886000000000,pin4,'0' (0x00)
7.031399000000000,pin4,'0' (0x00)
7.035913000000000,pin4,'1' (0x01)
7.040426000000000,pin4,'1' (0x01)
7.044940000000000,pin4,'29' (0x1D)
7.049453000000000,pin4,'0' (0x00)
7.053966000000000,pin4,'5' (0x05)
7.058480000000000,pin4,'0' (0x00)
7.062993000000000,pin4,'0' (0x00)
7.067507000000000,pin4,'0' (0x00)
7.072020000000000,pin4,'165' (0xA5)
7.076533000000000,pin4,'0' (0x00)
7.081047000000000,pin4,'0' (0x00)
7.085560000000000,pin4,'0' (0x00)
7.090073000000000,pin4,'0' (0x00)
7.094587000000000,pin4,'146' (0x92)
7.120397000000000,pin5,'252' (0xFC)
7.124981000000000,pin5,B (0x42)
7.129564000000000,pin5,'1' (0x01)
7.134148000000000,pin5,0 (0x30)
7.138732000000000,pin5,'16' (0x10)
7.143315000000000,pin5,'3' (0x03)
7.147899000000000,pin5,'0' (0x00)
7.152483000000000,pin5,'0' (0x00)
7.157066000000000,pin5,'0' (0x00)
7.161650000000000,pin5,'0' (0x00)
7.166233000000000,pin5,'0' (0x00)
7.170817000000000,pin5,'0' (0x00)
7.175401000000000,pin5,'0' (0x00)
7.179984000000000,pin5,'0' (0x00)
7.184568000000000,pin5,'0' (0x00)
7.189151000000000,pin5,'0' (0x00)
7.193735000000000,pin5,'0' (0x00)
7.198319000000000,pin5,'0' (0x00)
7.202902000000000,pin5,'0' (0x00)
7.207486000000000,pin5,'0' (0x00)
7.212070000000000,pin5,'0' (0x00)
7.216653000000000,pin5,z (0x7A)
7.240502000000000,pin4,'252' (0xFC)
7.245016000000000,pin4,b (0x62)
7.249529000000000,pin4,'1' (0x01)
7.254043000000000,pin4,0 (0x30)
7.258556000000000,pin4,'16' (0x10)
7.263069000000000,pin4,'3' (0x03)
7.267583000000000,pin4,'0' (0x00)
7.272096000000000,pin4,'0' (0x00)
7.276609000000000,pin4,'4' (0x04)
7.281123000000000,pin4,'0' (0x00)
7.285636000000000,pin4,'150' (0x96)
7.290150000000000,pin4,'157' (0x9D)
7.294663000000000,pin4,'0' (0x00)
7.299176000000000,pin4,'0' (0x00)
7.303690000000000,pin4,'0' (0x00)
7.308203000000000,pin4,'0' (0x00)
7.312716000000000,pin4,'0' (0x00)
7.317230000000000,pin4,'0' (0x00)
7.321743000000000,pin4,'0' (0x00)
7.326257000000000,pin4,'0' (0x00)
7.330770000000000,pin4,'0' (0x00)
7.335283000000000,pin4,# (0x23)
7.362287000000000,pin5,'252' (0xFC)
7.366871000000000,pin5,A (0x41)
7.371454000000000,pin5,'1' (0x01)
7.376038000000000,pin5,0 (0x30)
7.380622000000000,pin5,'16' (0x10)
7.385205000000000,pin5,'1' (0x01)
7.389789000000000,pin5,'15' (0x0F)
7.394372000000000,pin5,'0' (0x00)
7.398956000000000,pin5,'1' (0x01)
7.403540000000000,pin5,'1' (0x01)
7.408123000000000,pin5,'0' (0x00)
7.412707000000000,pin5,'0' (0x00)
7.417290000000000,pin5,'0' (0x00)
7.421874000000000,pin5,'0' (0x00)
7.426458000000000,pin5,'0' (0x00)
7.431041000000000,pin5,'0' (0x00)
7.435625000000000,pin5,'0' (0x00)
7.440209000000000,pin5,'0' (0x00)
7.444792000000000,pin5,'0' (0x00)
7.449376000000000,pin5,'165' (0xA5)
7.453959000000000,pin5,'0' (0x00)
7.458543000000000,pin5,'199' (0xC7)
7.481225000000000,pin4,'252' (0xFC)
7.485738000000000,pin4,a (0x61)
7.490251000000000,pin4,'1' (0x01)
7.494765000000000,pin4,0 (0x30)
7.499278000000000,pin4,'16' (0x10)
7.503791000000000,pin4,'0' (0x00)
7.508305000000000,pin4,'0' (0x00)
7.512818000000000,pin4,'0' (0x00)
7.517332000000000,pin4,'0' (0x00)
7.521845000000000,pin4,'0' (0x00)
7.526358000000000,pin4,'0' (0x00)
7.530872000000000,pin4,'0' (0x00)
7.535385000000000,pin4,'0' (0x00)
7.539898000000000,pin4,'0' (0x00)
7.544412000000000,pin4,'0' (0x00)
7.548925000000000,pin4,'0' (0x00)
7.553439000000000,pin4,'0' (0x00)
7.557952000000000,pin4,'0' (0x00)
7.562465000000000,pin4,'0' (0x00)
7.566979000000000,pin4,'0' (0x00)
7.571492000000000,pin4,'0' (0x00)
7.576006000000000,pin4,^ (0x5E)
8.763337000000000,pin5,'252' (0xFC)
8.767920000000000,pin5,B (0x42)
8.772504000000000,pin5,'1' (0x01)
8.777087000000000,pin5,0 (0x30)
8.781670999999999,pin5,'16' (0x10)
8.786255000000001,pin5,'2' (0x02)
8.790838000000001,pin5,'0' (0x00)
8.795422000000000,pin5,'0' (0x00)
8.800005000000001,pin5,'0' (0x00)
8.804589000000000,pin5,'0' (0x00)
8.809172999999999,pin5,'0' (0x00)
8.813756000000000,pin5,'0' (0x00)
8.818339999999999,pin5,'0' (0x00)
8.822924000000000,pin5,'0' (0x00)
8.827507000000001,pin5,'0' (0x00)
8.832091000000000,pin5,'0' (0x00)
8.836674000000000,pin5,'0' (0x00)
8.841258000000000,pin5,'0' (0x00)
8.845841999999999,pin5,'0' (0x00)
8.850425000000000,pin5,'0' (0x00)
8.855009000000001,pin5,'0' (0x00)
8.859591999999999,pin5,{ (0x7B)
8.880655000000001,pin4,'252' (0xFC)
8.885168000000000,pin4,b (0x62)
8.889681000000000,pin4,'1' (0x01)
8.894195000000000,pin4,0 (0x30)
8.898707999999999,pin4,'16' (0x10)
8.903221000000000,pin4,'2' (0x02)
8.907735000000001,pin4,'0' (0x00)
8.912248000000000,pin4,'0' (0x00)
8.916762000000000,pin4,'1' (0x01)
8.921275000000000,pin4,'1' (0x01)
8.925788000000001,pin4,'29' (0x1D)
8.930301999999999,pin4,'0' (0x00)
8.934815000000000,pin4,'5' (0x05)
8.939328000000000,pin4,'0' (0x00)
8.943842000000000,pin4,'0' (0x00)
8.948354999999999,pin4,'0' (0x00)
8.952869000000000,pin4,'165' (0xA5)
8.957382000000001,pin4,'0' (0x00)
8.961895000000000,pin4,'0' (0x00)
8.966409000000001,pin4,'0' (0x00)
8.970922000000000,pin4,'0' (0x00)
8.975436000000000,pin4,'146' (0x92)
9.001007000000000,pin5,'252' (0xFC)
9.005591000000001,pin5,B (0x42)
